! Port 1 = Pin 1 = Input
! Port 2 = Pin 3 = Isolated Port
! Port 3 = Pin 4 = Direct Port
! Port 4 = Pin 6 = Coupled Port
# MHZ S DB R 50
!FREQ(MHz)       !S11dB           !S11deg          !S12dB           !S12deg          !S13dB           !S13deg          !S14dB           !S14deg          !S21dB           !S21deg          !S22dB           !S22deg          !S23dB           !S23deg          !S24dB           !S24deg          !S31dB           !S31deg          !S32dB           !S32deg          !S33dB           !S33deg          !S34dB           !S34deg          !S41dB           !S41deg          !S42dB           !S42deg          !S43dB           !S43deg          !S44dB           !S44deg
!Freq   dBS11                  angS11                          dBS12                  angS12                          dBS13                  angS13                          dBS14                  angS14                         
!       dBS21                  angS21                          dBS22                  angS22                          dBS23                  angS23                          dBS24                  angS24                         
!       dBS31                  angS31                          dBS32                  angS32                          dBS33                  angS33                          dBS34                  angS34                         
!       dBS41                  angS41                          dBS42                  angS42                          dBS43                  angS43                          dBS44                  angS44                         
10.00   -51.25831226           17.080744180000018573406623333  -69.93692473           163.83749687999976447460355673  -0.0112067100000009    -0.2494974100000005069263509323 -50.04292544           84.4662808499998208448441408
        -70.18770095           167.99616946999975658788531155  -44.69433925           8.453467789999975287100314776   -50.06580036           84.15241659999997021048738032   0.00558570999998037    -0.2474974399999999888153545432
        -0.00987815999999495   -0.2639224000000001297762138367 -50.0195648            83.89949323999979378675371559   -49.39030647           21.393255369999979407046223489  -70.64363632           164.12276493000011942411912356
        -50.02262573           84.32486790000028567079120665   0.00617285000004       -0.2400326999999994951181852976 -70.29920766           162.6131689599999771450578362   -45.15459519           11.426119389999951417944676691
20.00   -48.52134046           26.462076750000004457489892586  -66.48852942           143.80177042000020039644142936  -0.0160041000000024    -0.5457994900000002383481827742 -44.2339487            85.88640504999979612747096027
        -66.34619896           143.90948876999987770799697377  -44.69668484           11.708495669999985303247622749  -44.21065637           85.85078500999991532287052046   0.00332728000003734    -0.5426801199999999783629491486
        -0.015607719999997     -0.5508632499999992086123905469 -44.2200762            85.74671706999979533606479335   -48.2472057            22.61000844999998257771406568   -66.04740286           143.60218664999980388472617671
        -44.21419098           85.71296227999975271678831044   0.00269874000002441    -0.550311399999999821553567946  -66.85086559           143.67535682999998131687581045  -44.26311929           15.232661650000009878889443078
30.00   -46.91854104           30.351386290000002708823784101  -63.05107585           131.86126562999984967945568615  -0.0158207099999963    -0.8434169100000015631087927293 -40.77392774           86.08921968000013626366623656
        -63.30691539           130.70690538000012768553215887  -44.46227071           19.594802309999985076227229387  -40.78883573           86.14202795000001336435818693   0.00275587999998407    -0.8474738299999953589795661956
        -0.0179161500000002    -0.8444801499999955762347215449 -40.78631767           86.12535384999982922764003571   -47.29671862           26.185583920000001496000187876  -63.08918296           129.31472828999974950025484661
        -40.79425207           86.16842997000016274483998292   0.00189504999998532    -0.8376419899999998920031533648 -63.2524609            131.41339294000007166999106097  -43.50390088           19.534638010000020791391278995
40.00   -45.70187993           33.42880587000000365290283159   -60.43236659           124.76684085999992467170461149  -0.0182664800000013    -1.1407560700000005626046705897 -38.33687368           86.26480199000028742246925877
        -60.64162479           125.91380172000017052610579155  -43.21946038           25.598503940000027228618357716  -38.34402082           86.22949739000026389937949233   0.00160490999996344    -1.1259443800000016310579903301
        -0.0191063800000003    -1.1412063600000002613119174002 -38.35215055           86.18586684999986775514609596   -46.0785211            29.928870780000003807834152633  -60.54005892           123.58979604000015281216291725
        -38.3497136            86.21823256000011680013230891   0.000300850000029415   -1.138107469999996080099281513  -60.62403604           125.44042224000009251583589868  -42.4805965            24.468889730000006314040516148
50.00   -45.81993823           36.888501359999975395564313001  -58.30735046           119.7906447399997391192000454   -0.0181824300000046    -1.4218068000000006899137599916 -36.45068768           86.16855269000027461834172364
        -58.43495996           120.90219871999990070543727445  -41.64499575           25.187474410000015832009933932  -36.44914819           86.2318982499997235418581376    -0.0000164699999966648 -1.4127817900000014508806209461
        -0.0191625199999923    -1.4272214699999971795225297987 -36.4478215            86.19173666000006896352343848   -46.20548016           32.096790870000017698915432739  -58.39278491           119.60847667999977224892718589
        -36.44729117           86.17095116000025695099034485   -0.00288797999999621   -1.4184859499999980333381245528 -58.67663464           120.43987840999994982881255471  -41.85572611           27.826285920000002886193150993
60.00   -46.07079296           37.409769040000022026375163862  -56.70266407           116.73292602000011347832246572  -0.0207917900000013    -1.7052326500000026691418731255 -34.90413054           86.1433060800000984427680166
        -56.69710906           117.59284270000020187339255308  -40.88046798           24.61054904999999192314144515   -34.90573106           86.14862066999989416356734853   -0.00333335000000481   -1.690860190000001750239609746
        -0.0213823900000048    -1.707240520000001608645600258  -34.88901203           86.16311395000026982283286517   -45.49739724           34.8350176499999966546288272    -56.60325378           115.27028982999984618348430761
        -34.89671844           86.13353149000024239059511101   -0.00576695000000158   -1.6999556699999963825325071937 -56.82658308           116.89547388999990077784822172  -41.64136314           26.657415410000019173502978233
70.00   -45.01574393           34.296403500000031410735216497  -55.14449553           113.67556068999970731108183319  -0.0248814299999966    -1.9888598599999980147555435383 -33.59313098           85.96706161000023408605735683
        -55.20979118           114.24029847000008704355047034  -40.47545796           23.846470359999995278310705543  -33.59410368           86.00656884000008061002310743   -0.00782998999999762   -1.9754631300000037275861613118
        -0.0257317599999978    -1.9913237600000044180105858537 -33.58638185           85.98604180999983144564611363   -45.0553869            32.782737869999987242665832503  -55.20714122           112.41911187999997274130842452
        -33.59481209           85.97367836999999001275920857   -0.00799161999999695   -1.9765355800000029731008535837 -55.36158708           113.1112561000000887972476894   -41.48100731           28.549376240000037773009898149
80.00   -43.83639079           29.583885669999992857346010674  -53.78660674           110.82119795999992926364016478  -0.0285726899999975    -2.258303800000001146487911437  -32.45492938           85.88195559000012768764704158
        -53.91045              112.09531317999982133252331151  -40.13373397           22.615991340000003007258560146  -32.45749746           85.8573861699998609624949941    -0.0104552499999903    -2.2464309099999959522413303745
        -0.0291650100000012    -2.2740258299999997821882798147 -32.44537006           85.83093336000011768986191686   -43.86879441           29.721613939999951137626826128  -53.83306417           110.37517480999973093864064963
        -32.45370753           85.83890191000012949244092328   -0.0079008999999977    -2.2576678400000059093104826263 -54.07008695           110.60963470000009054333847992  -41.47414939           28.807682209999998083572071917
90.00   -42.85435282           28.235735630000006077421360845  -52.52155897           108.86483103000012373240555418  -0.0316796699999996    -2.5390580200000006080941772693 -31.44954064           85.67392173000029539566889412
        -52.77414058           109.6051306599997927828228602   -39.36866758           22.743568109999972986441509842  -31.4469006            85.67939177999979602131884675   -0.0128099499999999    -2.5248023700000022918941103878
        -0.0321768100000047    -2.5496487299999955390566997965 -31.44286132           85.68799153999972111267334457   -43.03032011           30.749051610000011306665763752  -52.6882122            108.72957628000022675308270345
        -31.44938981           85.67150337000021117231953733   -0.011281300000002     -2.5315627300000009318436929291 -52.87550143           109.02143406000015508877385592  -41.52259043           29.417449530000006159837838266
100.00  -42.29548318           23.61624826999997855318281859   -51.51593684           106.98771324000009259258359533  -0.0331483200000003    -2.8097669100000036109554454927 -30.55380704           85.48753247000005262124563193
        -51.61114414           107.53039771999990309651429439  -38.57045198           23.648592630000015648990089095  -30.55389803           85.48930329999987551113396159   -0.0141864099999984    -2.8080854799999983526670161752
        -0.0324100800000019    -2.8238901799999956298401117306 -30.54435698           85.50213112000026633839184845   -43.40663977           28.783293129999957873232690185  -51.65707998           106.46061960000018855599096309
        -30.54788306           85.46859311000008200924865469   -0.0144012500000023    -2.8059436600000020718053922626 -51.92646356           107.37763456999978695422541964  -41.50547814           29.011923439999997247995347162
110.00  -42.30813566           22.539355500000035656963633398  -50.6394073            104.98662821000006220348900953  -0.0375900600000029    -3.0864584400000001135323510489 -29.73211926           85.30128062000008684866571999
        -50.72608289           105.56868357999984350974094677  -38.40500185           23.128556340000018696323131799  -29.73847673           85.27527747000008473121695005   -0.0176482700000019    -3.0824026599999964206558138112
        -0.0360272500000001    -3.1018414800000007873429412224 -29.73280536           85.26069231999992720780889951   -43.91328708           28.291806949999986258231012009  -50.77469284           105.69717675000014144883391939
        -29.7367183            85.28947044000026926125875467   -0.0182711499999914    -3.0804572199999963318656902154 -51.0000543            105.26346219000005492913274508  -41.40633765           29.323371719999985813966444989
120.00  -42.2691762            19.24142116000003970407922156   -49.67301178           103.4409582500000063610196176   -0.0377462900000051    -3.369351769999997520229654504  -28.995902             85.05268513000000857755293934
        -49.87094503           103.72607662999987199944358143  -37.57901355           20.62560574999999657330096959   -28.99692552           85.09658339000020766932057678   -0.0169874000000038    -3.3592584499999971698350230606
        -0.037835619999998     -3.379623790000002805868510651  -28.98856207           85.05335280000019246673731207   -43.81944493           25.248639230000034338805247947  -49.94545667           104.34673860000020093028460539
        -28.99356531           85.04128385000011050067490555   -0.018123120000002     -3.3674204700000013276701214697 -50.15131203           104.14772879000010541371285726  -41.25249472           26.591469510000015013944295453
130.00  -42.56708356           18.531499969999995614547199728  -49.02798546           101.77888555999994919951438719  -0.0398219300000029    -3.6461661800000025810786738168 -28.30750048           84.86078064999987131700125474
        -49.19975254           101.93822423000002309064105339  -37.84072962           19.807046569999991021585733666  -28.31494493           84.86036155000016399689021149   -0.0191299299999998    -3.6346162300000036617440796645
        -0.0406863000000026    -3.6498692799999967396628623077 -28.30659084           84.8447710499997156959294263    -43.44244164           25.224001600000041792921768509  -49.12679895           103.1684271500001159925049747
        -28.31087583           84.84820559000020580487198466   -0.0199657400000027    -3.6440783600000018920516615061 -49.40576109           103.50411702000001679491265034  -40.81422145           23.52976786999996151568308455
140.00  -43.00040211           21.135991970000046755270302838  -48.52834821           100.47671482999983905310412468  -0.0400507600000002    -3.9146850100000013999116323928 -27.67484775           84.61388380999985024719886507
        -48.76588547           100.86404837000011691581251958  -39.36274539           18.751393100000000497693740853  -27.67760792           84.58287474999976271627652038   -0.0210226000000018    -3.9180236399999980638369544665
        -0.0410222900000026    -3.9303059000000038780454194399 -27.67206444           84.5856133400002101126002589    -43.09075581           25.54060549999999197291062825   -48.45174246           102.65900584000027101719423335
        -27.67864362           84.5946763100002404605588305    -0.0206076900000023    -3.9217865100000027069922926776 -48.67191076           102.47310249000012188480975166  -40.52301539           21.108709050000001540429022353
150.00  -43.05700235           19.980204199999984964594965542  -48.15404197           99.08145575000023665168896116   -0.0422754300000046    -4.186925160000005070639435637  -27.0874263            84.39370444000024119560234334
        -48.27803701           99.18112538999981041024926659   -41.26411838           18.124177940000001996683877151  -27.08976903           84.38718005999974086150651335   -0.0238948599999971    -4.1895130399999987217115511741
        -0.0428666700000036    -4.2092741100000001249885466696 -27.08415649           84.34555416999991169958842913   -42.55539054           25.066896479999972525101527287  -47.77782096           101.40489783999975674215664887
        -27.08895284           84.38078191999994425483628506   -0.022639029999999     -4.1974865000000006166187706692 -48.05709845           101.69432753999978957812501738  -40.20436302           17.620618720000029006030140755
160.00  -42.55638575           22.443403699999983712648760643  -47.44371409           98.61079049999979162511910894   -0.0464994600000042    -4.4595669100000024835018286297 -26.54050296           84.16830278000028691287610761
        -47.57636731           98.98458110000007181485821919   -41.24434569           19.132642059999991679198966126  -26.53799271           84.13775439999973600410127891   -0.0271265599999947    -4.4615803099999994012479950733
        -0.046211690000002     -4.4861904500000018730927745441 -26.53239911           84.15236207999986635085782995   -41.96756187           21.5135081400000103813934511    -47.13094869           100.06988635000006212760692478
        -26.5416818            84.12902529000023803347325934   -0.0269171000000039    -4.4633009599999970864464590783 -47.36050974           100.48164233000029624470512959  -39.49653154           14.544321280000009203060991043
170.00  -41.41419062           20.008615830000019569572213555  -46.60056544           98.47478519000011057219321641   -0.0473922599999996    -4.7412065200000000784854139884 -26.01511343           83.91388541999981227933509262
        -46.76180544           98.6506845100001616227509699    -39.77156498           21.048665029999962841126596535  -26.02054758           83.92487931000026610762351533   -0.0271025499999979    -4.7393951700000000358689723415
        -0.0460334299999983    -4.7514917400000017400936412789 -26.01153558           83.9299046699998064722622122    -41.23368718           16.338831239999968488263592392  -46.40767653           98.50790992999970572645258652
        -26.02022178           83.91543623000022175882907796   -0.0266645400000014    -4.7390306800000054288523945049 -46.67710053           99.01096651000014993416366752   -38.60160735           11.45369781999996406368671922
180.00  -40.67814235           20.430829260000042790635013228  -45.95122768           98.52508709000017160569441871   -0.0513957299999972    -5.0136964800000033464111866913 -25.52768512           83.69735846000004474605466096
        -46.05571569           98.71330104999977607654553936   -38.99084093           24.053872789999991882202146463  -25.53045902           83.70236835999972023265225181   -0.0305786799999961    -4.9994930799999954597381733429
        -0.0500701299999881    -5.0130115099999910591582050256 -25.52529249           83.69295755000027069600653931   -40.7665858            12.761809089999992630110376167  -45.87005023           97.74792334999977869104204024
        -25.53312492           83.68198607999991443508027916   -0.0310843199999989    -5.0076911399999985429490374032 -46.02344567           97.56475442999989836197594391   -38.06367967           9.886727570000001189361611134
190.00  -40.75477777           20.033100199999989569953328431  -45.42940555           97.99006385000004653432975563   -0.0559110500000031    -5.2810318900000051030157845834 -25.06927052           83.47528805000025885309782946
        -45.62971429           98.12412595999999995863613959   -38.90454236           23.367235720000035932316390863  -25.07418945           83.45087802000029271541081216   -0.0359411600000018    -5.2691461600000031214401997008
        -0.0554470999999979    -5.2916133999999990873463506722 -25.06499161           83.46306670000017914194138343   -40.59265007           11.703943949999978210965568123  -45.31827528           96.67873733999983590623755408
        -25.0717205            83.45726317000007981460149313   -0.0358250500000042    -5.2760087200000053020977054319 -45.52441753           96.5821623000001351534491637    -37.73573663           11.496495559999994016941573083
200.00  -40.87733624           17.638275830000039568536728642  -44.97816177           97.17501655999987691054664323   -0.0559388200000029    -5.5579103300000014567354220066 -24.62681605           83.20655360000003372565054828
        -45.11260643           96.99422590000008365388768646   -39.06346425           20.894832099999960426359267826  -24.63079879           83.19682903000007181592942745   -0.0350841100000018    -5.5514922999999998269613346024
        -0.0554457400000015    -5.5712736000000024648185980292 -24.62454115           83.2027693400001208466543128    -40.46804806           7.5036825900000228467697166228  -44.83519665           95.70069082999981460530058393
        -24.6326668            83.19472825000007447669328888   -0.035251159999998     -5.5616842800000048983113015674 -45.0148416            95.1876687900002753235193976    -37.69665152           13.820507479999993141494911704
210.00  -40.63900913           13.727158760000009152981551298  -44.48162229           96.03028386000013314972904651   -0.0567804400000037    -5.8216424599999895319072119609 -24.21303348           82.96122444999997885837763718
