<Qucs Dataset 0.0.19>
<indep acfrequency 3>
  +2.40000000000000000000e+009
  +2.45000000000000000000e+009
  +2.50000000000000000000e+009
</indep>
<indep u_bias 11>
  +0.00000000000000000000e+000
  +3.29999999999999960032e-001
  +6.59999999999999920064e-001
  +9.89999999999999991118e-001
  +1.31999999999999984013e+000
  +1.64999999999999991118e+000
  +1.97999999999999998224e+000
  +2.31000000000000005329e+000
  +2.63999999999999968026e+000
  +2.96999999999999975131e+000
  +3.29999999999999982236e+000
</indep>
<dep phase acfrequency u_bias>
  +1.56946967544882176604e+000
  +1.54856289139858094295e+000
  +1.52738221303184595889e+000
  +1.58764477519912583503e+000
  +1.56669104980674078753e+000
  +1.54559975174385177965e+000
  +1.61710219472266603091e+000
  +1.59579097020736715429e+000
  +1.57456823110842925040e+000
  +1.65857591742220411568e+000
  +1.63614723596320099652e+000
  +1.61415796908139452803e+000
  +1.71396347317175412606e+000
  +1.68886470799209464921e+000
  +1.66479573793213209143e+000
  +1.79201541630319938214e+000
  +1.76080322360979768526e+000
  +1.73183426299867693210e+000
  +1.92591453659109501650e+000
  +1.87973848305585988783e+000
  +1.83806109283674534716e+000
  +8.61239999257966570845e-001
  +1.97547062436968179355e+000
  +1.98252809292178611145e+000
  +7.67275966611709936416e-001
  +3.75964617513139087723e-001
  -1.35065902491257466833e-002
  +1.53423243758880922805e+000
  +1.38964992749731242050e+000
  +1.22086253955381041081e+000
  +2.23989771400675330426e+000
  +1.91686346933193552111e+000
  +1.72457681818813712837e+000
</dep>
<dep V1.i acfrequency u_bias>
  +3.29471598004432245110e-005-j4.83746645818907479875e-005
  +3.31494347801673916562e-005-j4.96131045390438583714e-005
  +3.33041454124529239249e-005-j5.09644243802317772484e-005
  +3.21210547091023060741e-005-j4.64937483887380425141e-005
  +3.23808461075071284921e-005-j4.76602787684744173325e-005
  +3.25929758229246779953e-005-j4.89256806046692654878e-005
  +3.07206337065464297727e-005-j4.36605404934031725013e-005
  +3.10757915490128821005e-005-j4.47353897899912432900e-005
  +3.13793998151237697909e-005-j4.58905417000015353863e-005
  +2.86525089780945168725e-005-j4.01083595368818978289e-005
  +2.91542049475264374893e-005-j4.10964108860975061810e-005
  +2.95917641948890318892e-005-j4.21457085185392390961e-005
  +2.57790162108032398021e-005-j3.61124642724958982314e-005
  +2.65143114372823663380e-005-j3.70368982501193956904e-005
  +2.71553554951307184607e-005-j3.80078337262990012296e-005
  +2.16141890281945762726e-005-j3.17812828476002738761e-005
  +2.27810972856145085147e-005-j3.26514861931945533642e-005
  +2.37797921493372351051e-005-j3.35705165874679103163e-005
  +1.41149482904209895622e-005-j2.73148550252446127421e-005
  +1.63828561378188249586e-005-j2.78793710448332608697e-005
  +1.82393948445069599689e-005-j2.86388084295726028582e-005
  +1.04746787596535769567e-006-j2.91425987018851432133e-005
  +5.44122441203100535505e-006-j2.63219017250767426037e-005
  +9.27505504705861174024e-006-j2.54321159015191625553e-005
  +1.79630335470116827439e-005-j4.08775320523111865300e-005
  +8.04014693512806884700e-006-j4.57529128278259193240e-005
  -1.06991800190364004252e-006-j3.99617940354387245726e-005
  +3.20844754327694106961e-006-j6.80939797001084246795e-006
  +1.19379324256358149809e-005-j1.43134676790759301644e-005
  +1.71788351831893381218e-005-j2.22177075460282578241e-005
  -8.67753082227760730869e-005-j1.46062547346371980454e-005
  -4.13408503269493499219e-005+j4.85489388420021247529e-006
  -1.54443677403816368007e-005+j2.12038580485579150221e-006
</dep>
<dep V2.i acfrequency u_bias>
  -1.00889640344295240804e-002-j3.01359448100172594431e-005
  -1.00421452012476597471e-002-j2.70732345516591990653e-004
  -9.94955400626333294478e-003-j5.20865299855873334356e-004
  -1.00933679753875821250e-002+j1.77115713200289015550e-004
  -1.00857663080196266470e-002-j6.16689702932649713718e-005
  -1.00326832699805818666e-002-j3.05072451832781241232e-004
  -1.00274424700259427723e-002+j5.15661322883491368696e-004
  -1.00842079147486739232e-002+j2.70501737340292369716e-004
  -1.00945580168328753745e-002+j2.86050161294997690176e-005
  -9.78497713115996162192e-003+j1.01619962351299358838e-003
  -9.93679496033425015133e-003+j7.41679813459523995522e-004
  -1.00377471725349564496e-002+j4.82770209046703979716e-004
  -9.20819607620702515471e-003+j1.77377240096393464647e-003
  -9.50172683098668598156e-003+j1.41717707990965478132e-003
  -9.73209640472379872156e-003+j1.09918649283569092034e-003
  -7.98728952712373686806e-003+j3.12959618866807346566e-003
  -8.52154740617908253164e-003+j2.54583819776041820476e-003
  -8.96182541222523970648e-003+j2.06102505573399919642e-003
  -5.16344383377721326961e-003+j6.80830267815493543615e-003
  -6.20277199651314732620e-003+j5.30772428248159865161e-003
  -7.08299803515918206115e-003+j4.19728564223428770447e-003
  -2.12965731795574080704e-003+j2.01210687907618507309e-002
  -2.38643155905895153202e-003+j1.40203274129522149211e-002
  -3.57033500720728771971e-003+j1.00542106657804143632e-002
  -4.16246516547447292789e-002+j2.56676098756770248999e-002
  -3.04149697700796771416e-002+j3.64246271597696638644e-002
  -1.37294434090850462488e-002+j3.58646729325177229808e-002
  -3.93808171764422204619e-002+j8.57002679535050129050e-004
  -4.04893172733766862348e-002+j4.27210479937775722270e-003
  -4.22473320302366311951e-002+j9.14721151227456882871e-003
  -4.00460684940153882616e-002-j1.96626739461413409249e-002
  -4.07333528880640671765e-002-j8.72622866955110980391e-003
  -3.95323366574990078814e-002-j3.44366114175511002504e-003
</dep>
<dep _net0.v acfrequency u_bias>
  +9.99980015480911421655e-001+j6.69045206981587307904e-003
  +9.99824129016147589155e-001+j6.52349815520457919360e-003
  +9.99668406851371371680e-001+j6.33408280662631998498e-003
  +1.00011745350522951448e+000+j6.69337252386820527605e-003
  +9.99959939096091376953e-001+j6.55183495016742074163e-003
  +9.99805784845158584950e-001+j6.38700453957107873448e-003
  +1.00034195853540919252e+000+j6.64965431530930434212e-003
  +1.00017572117801090137e+000+j6.55082259917822828238e-003
  +1.00001821051885708691e+000+j6.42639522682748962762e-003
  +1.00067388830520931364e+000+j6.48886449360525346258e-003
  +1.00048180411634124454e+000+j6.45506137317481722138e-003
  +1.00030734106058916133e+000+j6.39022832006253850567e-003
  +1.00117626935638903696e+000+j6.10637467703226220067e-003
  +1.00092061525511932807e+000+j6.17243589004253488672e-003
  +1.00069976385485848169e+000+j6.19564499783462237226e-003
  +1.00207537793045031727e+000+j5.29673587561612421032e-003
  +1.00165380707545192962e+000+j5.53569956116457210366e-003
  +1.00131208930182546979e+000+j5.70527525392883812921e-003
  +1.00451489593872556050e+000+j3.42411503967920884811e-003
  +1.00344796145357473272e+000+j4.02939520047776358197e-003
  +1.00267207503012101277e+000+j4.50917659682306248142e-003
  +1.01334319815975759660e+000+j1.41227287185201810446e-003
  +1.00910777310831889508e+000+j1.55025460806012442896e-003
  +1.00640070930538483296e+000+j2.27294585956433438031e-003
  +1.01702136245445151630e+000+j2.76032044388785993694e-002
  +1.02366187535819030963e+000+j1.97579297261173403299e-002
  +1.02283215991833720260e+000+j8.74043513782531318601e-003
  +1.00056831755287922725e+000+j2.61152154859541456300e-002
  +1.00277521059684726623e+000+j2.63023468835671923871e-002
  +1.00582329571074224894e+000+j2.68954869002268684430e-002
  +9.86960784362780785273e-001+j2.65563739675798368700e-002
  +9.94331337031390982695e-001+j2.64608753503752167080e-002
  +9.97807697227824808017e-001+j2.51670671640556072035e-002
</dep>
<dep _net3.v acfrequency u_bias>
  +7.13509075006926174467e-001+j1.03912816579215354362e-002
  +7.15393711576789326223e-001+j2.47598154256718772093e-002
  +7.19339259170909128827e-001+j3.91236935860773196727e-002
  +7.13520431176272951213e-001-j2.34364994431507855585e-003
  +7.13651622612182623406e-001+j1.21414782274095814363e-002
  +7.15816874189412644114e-001+j2.66265959225567734603e-002
  +7.16813175839884353380e-001-j2.29352101013225867510e-002
  +7.14066552569690538022e-001-j8.24552049278033660773e-003
  +7.13396092882021326531e-001+j6.44476917407715756830e-003
  +7.28239575631979385584e-001-j5.12768812269429816175e-002
  +7.21173076953093294961e-001-j3.62711678431155079561e-002
  +7.16432716019489879145e-001-j2.12576122965532701703e-002
  +7.55493441681846067404e-001-j8.65608196746086577811e-002
  +7.41658579994276867531e-001-j7.12038255115002155504e-002
  +7.30900072714712800703e-001-j5.57522492529139435113e-002
  +8.15733633441951933030e-001-j1.27767401007332304097e-001
  +7.89064488301306488083e-001-j1.12854199353507086978e-001
  +7.67660119443585364785e-001-j9.72620704009116016087e-002
  +9.76758729603129927099e-001-j1.59750962682322195096e-001
  +9.13479371348573154776e-001-j1.55672936290966262840e-001
  +8.64197806241476462752e-001-j1.45260682383442057963e-001
  +1.37978802835395031323e+000+j4.77653085226090873272e-002
  +1.22494403498768567040e+000-j8.43912290277735455124e-002
  +1.09751011019135580327e+000-j1.39040245716257698794e-001
  +4.87062368677028845187e-001+j1.02537660029141397544e+000
  +1.03327351168443826168e+000+j1.07775159295776745694e+000
  +1.45572376960038574190e+000+j6.94997697972114636400e-001
  +4.92630688086666546077e-002+j8.68920436853070632388e-002
  +5.61335550533101773629e-002+j2.86653939301793503347e-001
  +9.99954694803881771747e-002+j5.20669936074749206689e-001
  +3.67645541809858034110e-001-j7.75479432009950953031e-001
  +1.20802373344390451271e-001-j4.26063602675070485226e-001
  +6.52928751918058214443e-002-j1.73016315458870528765e-001
</dep>
<dep _net1.v acfrequency u_bias>
  +1.02225606618698075523e-002+j7.00663896400678609666e-001
  +2.46101998364559489130e-002+j6.98369307660967164608e-001
  +3.90073914158849330280e-002+j6.94021274898079965077e-001
  -2.51407383331026185527e-003+j7.01015864003270539051e-001
  +1.19769173443830707904e-002+j7.00467922205673110270e-001
  +2.64827731913767142058e-002+j6.97898012616951501919e-001
  -2.30832675405276480096e-002+j6.98312901442396882778e-001
  -8.41007582767542768987e-003+j7.00623008379594236494e-001
  +6.27988694964603990506e-003+j7.00876881473663781996e-001
  -5.13428689830831286312e-002+j6.87728798451686773596e-001
  -3.63870021181782327124e-002+j6.94311707084552254265e-001
  -2.14048040986549760467e-002+j6.98601217112201022807e-001
  -8.64379278143378448895e-002+j6.61646200061214440069e-001
  -7.11780569433063392548e-002+j6.74895437283459576072e-001
  -5.58013966953402190674e-002+j6.85124525682562102169e-001
  -1.27281603120276726182e-001+j6.03208873036528925304e-001
  -1.12530387061859582509e-001+j6.29055851188653702977e-001
  -9.70747480207310164957e-002+j6.49750127605554506083e-001
  -1.58706783641009901986e-001+j4.46022847508733277788e-001
  -1.54802350556932061254e-001+j5.07706920374881853775e-001
  -1.44586488717510869284e-001+j5.55725351035203707362e-001
  +4.64749087952253323031e-002+j5.26886481652476396098e-002
  -8.39572405242458852381e-002+j2.03274778832727487377e-001
  -1.38107029724216429090e-001+j3.27566664886651537358e-001
  +9.98955761546948761698e-001+j9.38141297776427962596e-001
  +1.05519368405653457543e+000+j4.00763616399316680017e-001
  +6.82519455007792208434e-001-j1.79122594107887223025e-002
  +6.80734296372620117932e-002+j1.36509160682065977532e+000
  +2.67152296524933496880e-001+j1.35876374505910302304e+000
  +4.99471974359438464219e-001+j1.31630839005464217450e+000
  -7.99399847983394695738e-001+j1.03891100738851771546e+000
  -4.46784777447922998306e-001+j1.29141619656097295099e+000
  -1.91472406870242084498e-001+j1.34847638143926928933e+000
</dep>
<dep _net2.v acfrequency u_bias>
  +1.59636811706980845382e-002+j4.86440183233540823782e-001
  +4.83406956572587642729e-002+j4.85536086376865183567e-001
  +8.12080469659343662236e-002+j4.84016599223164145638e-001
  -1.24112229718969704212e-002+j4.86717743542739167406e-001
  +2.00213674585117372418e-002+j4.86322920189583840500e-001
  +5.27059196081351849505e-002+j4.85342671097092837051e-001
  -5.84277361638764133889e-002+j4.86191452498647036506e-001
  -2.54187301631001380531e-002+j4.86620164823626910611e-001
  +7.45085048788366420547e-003+j4.86461690492171860978e-001
  -1.23419762822669337732e-001+j4.83346537446930069049e-001
  -8.85429825626028038643e-002+j4.85065284656676865005e-001
  -5.44094747085918442608e-002+j4.86083957303677816064e-001
  -2.10930309866660392615e-001+j4.75299225808840430929e-001
  -1.71519827468070817922e-001+j4.79359939040654770004e-001
  -1.33874416647695754223e-001+j4.82307575898523244184e-001
  -3.36483178806686711315e-001+j4.53701692835862757658e-001
  -2.86433909449996693120e-001+j4.63541945932191501445e-001
  -2.40335678001568409101e-001+j4.70794172002162170099e-001
  -5.64860419773472344218e-001+j3.72599368386257012720e-001
  -4.84309797768927130512e-001+j4.07867412679177587798e-001
  -4.14340455391922934947e-001+j4.31764426630574960075e-001
  -9.40327993209831292098e-001-j3.19698650793894603717e-002
  -8.19749838856418944211e-001+j1.68152371160687041929e-001
  -6.98023367784071036013e-001+j2.84732469703659007987e-001
  +1.29356292406596767863e-001-j7.54500435999515106644e-001
  -3.28962139065301029106e-001-j9.53983146886381416785e-001
  -8.28005376770372336637e-001-j7.11803930645734439508e-001
  +5.34202334535131689863e-002-j3.85097945746530403999e-002
  +1.64205160995791743517e-001-j1.02883747345391907135e-001
  +2.48999464550656107731e-001-j2.50825424031062116370e-001
  -1.47388409470029957404e-001-j5.33061387953232435066e-001
  -1.95537658251141971411e-001-j2.10329344558396719167e-001
  -9.85998175283603617292e-002-j6.95832457037402624112e-002
</dep>
<dep in.v acfrequency u_bias>
  +1.00000000000000000000e+000
  +1.00000000000000000000e+000
  +9.99999999999999777955e-001+j1.73472347597680709441e-018
  +1.00000000000000000000e+000
  +9.99999999999999777955e-001-j1.73472347597680709441e-018
  +1.00000000000000000000e+000-j3.46944695195361418882e-018
  +1.00000000000000000000e+000
  +1.00000000000000000000e+000-j2.60208521396521064162e-018
  +1.00000000000000022204e+000+j3.46944695195361418882e-018
  +1.00000000000000000000e+000
  +1.00000000000000022204e+000-j2.60208521396521064162e-018
  +1.00000000000000000000e+000
  +1.00000000000000000000e+000
  +1.00000000000000022204e+000-j1.73472347597680709441e-018
  +9.99999999999999888978e-001+j1.73472347597680709441e-018
  +1.00000000000000000000e+000
  +1.00000000000000000000e+000+j8.67361737988403547206e-019
  +1.00000000000000022204e+000-j1.73472347597680709441e-018
  +1.00000000000000000000e+000
  +9.99999999999999888978e-001
  +1.00000000000000000000e+000-j2.60208521396521064162e-018
  +1.00000000000000000000e+000
  +9.99999999999999888978e-001-j4.33680868994201773603e-019
  +1.00000000000000000000e+000-j4.33680868994201773603e-019
  +1.00000000000000000000e+000
  +9.99999999999999888978e-001
  +1.00000000000000000000e+000+j1.73472347597680709441e-018
  +1.00000000000000000000e+000
  +1.00000000000000000000e+000+j3.46944695195361418882e-018
  +9.99999999999999888978e-001-j3.46944695195361418882e-018
  +1.00000000000000000000e+000
  +1.00000000000000022204e+000-j3.46944695195361418882e-018
  +1.00000000000000000000e+000
</dep>
<dep bias.v acfrequency u_bias>
  +0.00000000000000000000e+000
  +0.00000000000000000000e+000
  +0.00000000000000000000e+000
  +0.00000000000000000000e+000
  +0.00000000000000000000e+000
  +0.00000000000000000000e+000
  +0.00000000000000000000e+000
  +0.00000000000000000000e+000
  +0.00000000000000000000e+000
  +0.00000000000000000000e+000
  +0.00000000000000000000e+000
  +0.00000000000000000000e+000
  +0.00000000000000000000e+000
  +0.00000000000000000000e+000
  +0.00000000000000000000e+000
  +0.00000000000000000000e+000
  +0.00000000000000000000e+000
  +0.00000000000000000000e+000
  +0.00000000000000000000e+000
  +0.00000000000000000000e+000
  +0.00000000000000000000e+000
  +0.00000000000000000000e+000
  +0.00000000000000000000e+000
  +0.00000000000000000000e+000
  +0.00000000000000000000e+000
  +0.00000000000000000000e+000
  +0.00000000000000000000e+000
  +0.00000000000000000000e+000
  +0.00000000000000000000e+000
  +0.00000000000000000000e+000
  +0.00000000000000000000e+000
  +0.00000000000000000000e+000
  +0.00000000000000000000e+000
</dep>
<dep _net4.v acfrequency u_bias>
  +1.72474973331242648067e-001+j1.90295877399635870834e-003
  +1.78332686349860991548e-001+j5.41874283956575962529e-003
  +1.85133135528519260360e-001+j9.15053649466282884029e-003
  +1.50800880083290206324e-001-j8.99380359922539551580e-004
  +1.56153014399050743544e-001+j2.13376855412188365727e-003
  +1.62281219302626844581e-001+j5.37840857406103427241e-003
  +1.16333642606837511790e-001-j3.87528368564816084324e-003
  +1.21308100065518106869e-001-j1.63843244313534460409e-003
  +1.26810325288804315313e-001+j8.12013990515576236824e-004
  +6.85676409959756621992e-002-j4.78806229140803576994e-003
  +7.39413807850038268255e-002-j3.72304980168943356472e-003
  +7.94872346755308295529e-002-j2.41502030368697783586e-003
  +4.57750046027303320040e-003-j5.10278228147285103748e-004
  +1.23089266213202777611e-002-j1.15206079326836039432e-003
  +1.95807799532955531530e-002-j1.45987617634365184592e-003
  -9.01023543343270061357e-002+j1.35129216375543155515e-002
  -7.47816512136073169303e-002+j1.02626566025553981470e-002
  -6.15991492911424284862e-002+j7.49943480930953879082e-003
  -2.85386548023412567332e-001+j4.30571110072592785900e-002
  -2.39778410200823022258e-001+j3.81465171659489954425e-002
  -2.04331982893786096023e-001+j3.22867682210309925317e-002
  -7.83967474684668097495e-001-j4.48422133778415415994e-002
  -6.15915572152915480331e-001+j3.02937525487283337844e-002
  -4.92895382208416166225e-001+j5.38119243082101558762e-002
  -5.58962452492989925190e-001-j1.35683070234479696836e+000
  -1.03186533258175661132e+000-j1.17020716127836243992e+000
  -1.25524724338481608044e+000-j6.53002058750577596413e-001
  +1.23507671701491641980e-002-j1.11190361815787475130e+000
  -2.42210645844401911697e-002-j1.14886984035309747121e+000
  -1.12309921113061775277e-001-j1.25632827862880547265e+000
  +5.61228013780678769429e-001-j1.60355208014822747664e+000
  +1.63153790384351821130e-001-j1.35939408427463348517e+000
  +5.28258226881612238945e-002-j1.19646271486025623787e+000
</dep>
<dep _net6.v acfrequency u_bias>
  +4.15367456793303141405e-002+j4.49118741973679089750e-004
  +4.39223476277015023594e-002+j1.30388352578663497226e-003
  +4.66597436847678639915e-002+j2.25047683619767355592e-003
  +3.19635494285269786130e-002-j1.84430231838671572974e-004
  +3.40191587041412460413e-002+j4.55097261399635671236e-004
  +3.63462221920177949719e-002+j1.17615193340688049643e-003
  +1.90720927092361026978e-002-j6.18453113454038409802e-004
  +2.07053565592343231938e-002-j2.71440041870614305868e-004
  +2.25129221384421755736e-002+j1.41840998345325636394e-004
  +6.53669618408367694706e-003-j4.44179252511000231818e-004
  +7.65592517512335511004e-003-j3.74975187280123152273e-004
  +8.87738684600605787445e-003-j2.62075074942854670517e-004
  +2.77717714004692539501e-005-j3.00739940162096371256e-006
  +2.04905033582272288854e-004-j1.86352539267033541969e-005
  +5.26607315706029252729e-004-j3.81504809067245774339e-005
  +9.59790339930764214993e-003-j1.39266836590263881797e-003
  +6.89612653545618788792e-003-j9.16857021862466136167e-004
  +4.84525909775979958527e-003-j5.71980595012567681786e-004
  +7.30572795429753479857e-002-j1.05064216460509871759e-002
  +5.64755044257350818926e-002-j8.62146461919061253554e-003
  +4.42390044999444939644e-002-j6.73396353281537334706e-003
  +3.26465947475786555376e-001+j2.16963152974587875077e-002
  +2.39098125813828332742e-001-j9.72525751932850311687e-003
  +1.78514631166346610103e-001-j1.80839973723110197801e-002
  +3.35553424638209696340e-001+j8.43416496616461230929e-001
  +5.88212951625853186499e-001+j6.82381216678751734150e-001
  +6.74652627776400781734e-001+j3.59928194025558922942e-001
