! Port 1 = Pin 1 = Input
! Port 2 = Pin 3 = Isolated Port
! Port 3 = Pin 4 = Direct Port
! Port 4 = Pin 6 = Coupled Port
# MHZ S DB R 50
3.0000 -49.9051 21.6664 -61.2746 -141.0524 -0.0333 -0.2887 -52.3989 73.8623
  -61.5146 -138.2243 -50.0044 17.9917 -52.4580 74.3352 -0.0340 -0.2709
  -0.0338 -0.2662 -52.4064 74.2701 -49.7648 19.9014 -61.5744 -140.5813
  -52.3960 74.2282 -0.0351 -0.3337 -61.3575 -139.9305 -49.6493 17.9761
12.9965 -46.5373 37.2854 -57.2704 -140.5268 -0.0664 -1.3509 -41.3889 82.0086
  -57.1665 -141.9012 -47.4138 29.1017 -41.3762 81.9182 -0.0691 -1.3077
  -0.0655 -1.3213 -41.3677 81.7906 -47.4754 36.8886 -57.2555 -141.4104
  -41.3750 81.7366 -0.0654 -1.2825 -57.2651 -141.4381 -48.2312 25.0450
22.9929 -44.3054 50.5775 -54.7270 -136.7281 -0.0438 -1.8309 -36.5898 83.5900
  -54.7313 -136.6670 -45.6769 40.2801 -36.5905 83.4372 -0.0510 -1.7843
  -0.0475 -1.8253 -36.6143 83.4787 -44.4457 47.1125 -54.8828 -137.6679
  -36.5847 83.5818 -0.0438 -1.8055 -54.8035 -137.3759 -45.7098 29.2666
32.9894 -42.3171 53.3639 -53.0992 -134.3523 -0.0428 -2.4021 -33.5514 83.8987
  -52.9995 -133.5626 -44.6043 45.2965 -33.5600 83.8117 -0.0417 -2.3495
  -0.0436 -2.4044 -33.5574 83.8950 -42.9142 50.3978 -53.1650 -134.7823
  -33.5563 83.8725 -0.0424 -2.3672 -53.1616 -135.1494 -44.0035 29.9493
42.9859 -40.5513 53.7984 -51.7729 -133.5303 -0.0493 -3.0226 -31.3118 83.9059
  -51.6588 -133.7530 -43.1976 43.7116 -31.3199 83.7453 -0.0463 -2.9279
  -0.0494 -2.9960 -31.3072 83.7916 -41.5326 51.6679 -51.9243 -134.9080
  -31.3017 83.8609 -0.0457 -2.9629 -51.9254 -132.8600 -42.7109 30.1356
52.9824 -39.0564 53.7507 -50.6229 -132.4238 -0.0527 -3.5964 -29.5407 83.7069
  -50.5990 -133.1226 -42.4357 46.3912 -29.5394 83.6207 -0.0457 -3.5245
  -0.0494 -3.5900 -29.5397 83.6046 -40.0453 50.1210 -50.8697 -133.4061
  -29.5364 83.6294 -0.0460 -3.5873 -50.8638 -134.1541 -41.4809 26.5576
62.9788 -37.9023 53.2039 -49.5800 -133.3931 -0.0494 -4.2129 -28.0714 83.4048
  -49.6046 -133.1791 -41.2895 46.7666 -28.0731 83.3106 -0.0506 -4.0808
  -0.0519 -4.2066 -28.0736 83.2817 -39.2234 47.8644 -50.2283 -132.9487
  -28.0686 83.3359 -0.0475 -4.1634 -50.1183 -134.2144 -40.5525 21.4035
72.9753 -37.1966 50.6549 -48.9287 -133.8467 -0.0490 -4.8252 -26.8164 83.0221
  -48.9332 -132.8065 -40.4259 44.3095 -26.8131 82.8981 -0.0505 -4.6817
  -0.0583 -4.8011 -26.8113 82.9172 -38.6709 47.8138 -49.2069 -132.5487
  -26.8131 82.9653 -0.0505 -4.7421 -49.2433 -132.7877 -40.3685 22.4757
82.9718 -36.5383 49.2467 -48.3186 -133.7503 -0.0526 -5.4050 -25.7166 82.6096
  -48.2617 -132.8401 -39.8575 40.3861 -25.7193 82.5246 -0.0488 -5.2481
  -0.0544 -5.3687 -25.7223 82.4735 -38.2901 49.5259 -48.4187 -132.3742
  -25.7124 82.5388 -0.0509 -5.3602 -48.4083 -131.7305 -40.5683 23.0320
92.9682 -35.9870 48.7724 -47.6719 -132.7932 -0.0532 -5.9441 -24.7472 82.1395
  -47.6740 -132.9039 -39.4620 38.9125 -24.7509 82.0634 -0.0500 -5.8713
  -0.0571 -6.0154 -24.7504 82.0016 -37.3240 50.1816 -47.7446 -132.7386
  -24.7458 82.0657 -0.0500 -5.8930 -47.7492 -132.2790 -40.0633 24.1028
102.9647 -35.5392 50.4234 -47.1212 -132.9555 -0.0558 -6.5855 -23.8796 81.6430
  -47.0353 -132.7995 -39.0807 37.2350 -23.8806 81.5220 -0.0507 -6.4355
  -0.0596 -6.5589 -23.8822 81.5480 -36.1588 50.8224 -47.0843 -133.8816
  -23.8733 81.6506 -0.0536 -6.4977 -47.0076 -134.3500 -39.2466 28.0911
112.9612 -35.0276 53.6277 -46.3777 -133.6368 -0.0633 -7.1716 -23.0916 81.1718
  -46.3088 -132.8337 -38.6711 40.1148 -23.1006 81.0553 -0.0599 -7.0148
  -0.0674 -7.1564 -23.0966 81.0431 -35.4528 49.3891 -46.5415 -135.1374
  -23.0919 81.1173 -0.0623 -7.0740 -46.5640 -135.5715 -38.7971 28.1057
122.9576 -34.4070 55.0603 -45.8489 -134.7831 -0.0715 -7.7424 -22.3762 80.6649
  -45.8224 -134.6940 -38.0706 40.2450 -22.3809 80.5661 -0.0665 -7.6085
  -0.0760 -7.7706 -22.3770 80.5403 -34.8526 47.9479 -46.0664 -135.7572
  -22.3752 80.6307 -0.0679 -7.6258 -46.1235 -136.3873 -38.5211 28.2885
132.9541 -34.0705 56.3844 -45.3348 -135.7095 -0.0794 -8.2983 -21.7136 80.1983
  -45.3513 -135.5675 -37.6474 40.6908 -21.7216 80.0766 -0.0744 -8.1492
  -0.0831 -8.3140 -21.7204 80.0630 -34.4091 46.4033 -45.8133 -136.8762
  -21.7158 80.1390 -0.0743 -8.1949 -45.8703 -137.3412 -38.1147 26.1139
142.9506 -33.4731 55.4979 -45.0095 -137.4507 -0.0856 -8.8642 -21.0978 79.7078
  -44.9598 -136.8007 -37.0380 39.0100 -21.1043 79.5794 -0.0791 -8.7029
  -0.0914 -8.8809 -21.1057 79.5320 -34.2123 46.1344 -45.3293 -137.0008
  -21.1013 79.6474 -0.0795 -8.7834 -45.3354 -137.5236 -38.2740 27.9823
152.9471 -33.2290 53.7836 -44.8169 -138.4622 -0.0971 -9.4530 -20.5273 79.1644
  -44.7669 -137.8595 -36.6715 36.3998 -20.5332 79.0702 -0.0885 -9.2808
  -0.0987 -9.4315 -20.5372 79.0508 -34.1371 45.3669 -44.9578 -137.1445
  -20.5284 79.1658 -0.0896 -9.3304 -44.9718 -137.3245 -38.5296 27.6798
162.9435 -33.1637 52.2145 -44.5500 -138.2478 -0.1026 -10.0118 -19.9965 78.6826
  -44.5559 -137.8777 -36.6237 34.6302 -19.9988 78.5623 -0.1001 -9.8317
  -0.1073 -10.0155 -20.0024 78.5331 -34.0164 43.5938 -44.7225 -137.5522
  -19.9994 78.6624 -0.1035 -9.8988 -44.7718 -137.3493 -38.4129 25.0700
172.9400 -33.0658 50.3579 -44.3081 -137.8240 -0.1120 -10.5494 -19.4973 78.2007
  -44.3056 -138.1211 -36.7018 31.6944 -19.5011 78.0560 -0.1077 -10.3669
  -0.1161 -10.5755 -19.5038 78.0060 -33.7639 42.6240 -44.4132 -138.3637
  -19.4989 78.1492 -0.1071 -10.4541 -44.5341 -138.7688 -38.1347 23.1493
182.9365 -33.1279 49.4943 -44.0955 -137.5969 -0.1268 -11.1252 -19.0295 77.6822
  -43.8508 -137.8487 -36.8330 29.7790 -19.0352 77.5427 -0.1210 -10.9262
  -0.1326 -11.1267 -19.0338 77.5170 -33.8738 43.4120 -44.1205 -138.1862
  -19.0323 77.6473 -0.1204 -11.0027 -44.0069 -138.7487 -38.0316 19.7861
192.9329 -32.8447 45.8076 -43.8871 -137.9865 -0.1403 -11.6682 -18.5875 77.1755
  -43.8730 -137.7365 -36.6890 28.0399 -18.5913 77.0245 -0.1306 -11.4854
  -0.1440 -11.6738 -18.5891 77.0109 -33.7597 42.9992 -43.6467 -138.6447
  -18.5905 77.1384 -0.1334 -11.5197 -43.7606 -139.0192 -37.8419 18.0046
202.9294 -32.5999 43.0399 -43.7425 -137.9770 -0.1449 -12.2543 -18.1618 76.6677
  -43.6587 -137.1920 -36.6069 25.8986 -18.1666 76.5143 -0.1379 -12.0077
  -0.1531 -12.2410 -18.1627 76.4839 -33.6087 42.8759 -43.4227 -138.9950
  -18.1679 76.6111 -0.1374 -12.0762 -43.4297 -139.5489 -37.3869 14.3434
212.9259 -32.2240 41.7135 -43.3951 -138.0799 -0.1550 -12.7837 -17.7576 76.1661
  -43.2583 -137.7448 -36.6451 26.1891 -17.7647 76.0162 -0.1463 -12.5501
  -0.1606 -12.7881 -17.7602 75.9668 -33.3822 44.3982 -43.0785 -140.1382
  -17.7597 76.1176 -0.1478 -12.6168 -42.9163 -140.1159 -36.9801 13.4763
222.9224 -31.8970 40.5853 -43.0907 -137.2494 -0.1678 -13.3064 -17.3768 75.6693
  -43.0753 -136.9748 -36.7197 26.6520 -17.3803 75.5111 -0.1580 -13.0681
  -0.1729 -13.3032 -17.3791 75.4721 -33.1517 45.3218 -42.4982 -140.4087
  -17.3804 75.6132 -0.1587 -13.1571 -42.5489 -140.7566 -36.7505 12.9420
232.9188 -31.5968 40.5970 -42.7976 -137.1831 -0.1714 -13.8507 -17.0081 75.1699
  -42.7507 -136.2549 -36.8150 27.5716 -17.0121 75.0124 -0.1624 -13.6060
  -0.1795 -13.8495 -17.0108 74.9701 -32.8262 46.0772 -42.2167 -140.9985
  -17.0142 75.1246 -0.1659 -13.6970 -42.1529 -141.2164 -36.2898 11.6466
242.9153 -31.2624 40.3358 -42.5014 -136.3302 -0.1789 -14.3808 -16.6572 74.6503
  -42.4705 -135.7602 -36.9203 28.6012 -16.6610 74.4686 -0.1705 -14.1458
  -0.1829 -14.4012 -16.6601 74.4366 -32.4578 46.0032 -41.9735 -141.4853
  -16.6540 74.6403 -0.1707 -14.2012 -41.8697 -142.3957 -35.8354 10.2680
252.9118 -30.9889 41.5702 -42.1814 -135.9645 -0.1844 -14.9093 -16.3208 74.1463
  -42.0896 -135.3027 -37.0503 29.9894 -16.3191 73.9835 -0.1775 -14.6644
  -0.1966 -14.8975 -16.3250 73.9556 -32.0791 45.7088 -41.6132 -142.3717
  -16.3263 74.1382 -0.1844 -14.7282 -41.5544 -143.1344 -35.4715 9.8459
262.9082 -30.6632 42.0211 -42.1046 -136.8820 -0.2017 -15.4501 -16.0008 73.6630
  -41.8929 -136.0293 -36.7522 30.1861 -16.0053 73.4662 -0.1869 -15.1691
  -0.2048 -15.4330 -16.0065 73.4577 -31.6785 44.4657 -41.4645 -144.0014
  -16.0007 73.6352 -0.1942 -15.2531 -41.3972 -144.5628 -34.9735 9.2265
272.9047 -30.3815 41.4642 -41.9822 -137.0878 -0.2088 -15.9984 -15.6904 73.1528
  -41.9497 -136.4134 -36.7433 29.2896 -15.6930 72.9363 -0.1948 -15.7203
  -0.2111 -15.9805 -15.6976 72.9268 -31.1601 42.4909 -41.4699 -145.5439
  -15.6900 73.1011 -0.2019 -15.7869 -41.4713 -146.7527 -34.3350 8.1387
282.9012 -30.1661 41.6266 -41.9198 -137.8503 -0.2152 -16.5366 -15.3917 72.6426
  -41.8529 -137.6546 -36.6865 27.8173 -15.3970 72.4219 -0.2016 -16.2516
  -0.2222 -16.5312 -15.3962 72.3912 -30.8955 40.7354 -41.4723 -147.2200
  -15.3924 72.5727 -0.2065 -16.3272 -41.4027 -147.6591 -34.0345 5.6769
292.8976 -30.0647 41.3370 -41.7824 -138.3208 -0.2242 -17.0685 -15.1055 72.1203
  -41.7880 -137.8220 -36.8959 26.2554 -15.1092 71.9237 -0.2102 -16.7921
  -0.2281 -17.0685 -15.1094 71.8830 -30.6431 39.0635 -41.5106 -148.8734
  -15.1078 72.0584 -0.2164 -16.8473 -41.4272 -148.7601 -33.6450 3.7143
302.8941 -30.0117 41.4434 -41.6897 -138.6854 -0.2334 -17.5741 -14.8295 71.6284
  -41.6748 -138.2915 -36.9202 24.3765 -14.8341 71.4450 -0.2225 -17.3021
  -0.2392 -17.5695 -14.8349 71.4132 -30.3962 37.6716 -41.4875 -149.8328
  -14.8331 71.5964 -0.2249 -17.3505 -41.4237 -150.1737 -33.4848 2.0261
312.8906 -29.9605 41.3311 -41.5784 -139.3861 -0.2483 -18.1011 -14.5666 71.1584
  -41.5810 -138.9717 -37.0043 22.1977 -14.5725 70.9511 -0.2346 -17.7922
  -0.2540 -18.0668 -14.5730 70.9023 -30.2538 36.4003 -41.5044 -151.0667
  -14.5719 71.1130 -0.2373 -17.8701 -41.4752 -150.7945 -33.1979 0.4783
322.8871 -29.9761 40.7570 -41.4137 -138.3439 -0.2600 -18.6146 -14.3074 70.6133
  -41.4899 -138.8183 -37.4992 19.3930 -14.3145 70.4388 -0.2422 -18.3832
  -0.2618 -18.6009 -14.3162 70.3929 -30.2805 35.2102 -41.4322 -150.1395
  -14.3127 70.6266 -0.2457 -18.4005 -41.3649 -150.3088 -33.1846 -1.8557
332.8835 -30.0722 39.5873 -41.2368 -137.0070 -0.2677 -19.1758 -14.0595 70.1237
  -41.3196 -137.4590 -37.9058 15.6911 -14.0608 69.8782 -0.2536 -18.8986
  -0.2712 -19.1434 -14.0665 69.8774 -30.3219 34.6474 -41.3591 -149.0399
  -14.0599 70.1295 -0.2559 -18.9470 -41.2306 -149.2226 -33.1919 -4.5339
342.8800 -30.0686 38.5477 -41.2773 -136.2359 -0.2714 -19.6685 -13.8126 69.6023
  -41.1039 -136.8974 -37.7636 11.3283 -13.8186 69.3808 -0.2610 -19.3996
  -0.2819 -19.6817 -13.8154 69.4064 -30.2441 33.8311 -41.1478 -148.0274
  -13.8203 69.6182 -0.2646 -19.4350 -41.1363 -148.6793 -33.2324 -6.4785
352.8765 -30.0507 37.5352 -40.9202 -136.0003 -0.2857 -20.1883 -13.5803 69.1488
  -40.7841 -135.7048 -37.9036 9.4925 -13.5889 68.9099 -0.2713 -19.9033
  -0.2921 -20.1718 -13.5834 68.9190 -30.1431 33.0247 -40.9586 -147.4662
  -13.5840 69.1122 -0.2748 -19.9442 -40.9569 -148.3146 -33.0484 -8.0091
362.8729 -29.8740 36.3242 -40.7269 -136.0478 -0.2996 -20.7298 -13.3562 68.6519
  -40.5572 -135.3949 -37.6028 8.4347 -13.3646 68.4098 -0.2862 -20.3909
  -0.3067 -20.6808 -13.3627 68.4320 -29.9201 31.9991 -40.8092 -148.0997
  -13.3642 68.6246 -0.2881 -20.4100 -40.9549 -148.9842 -32.8128 -8.4466
372.8694 -29.6124 35.4832 -40.6605 -135.8001 -0.3169 -21.2327 -13.1423 68.1602
  -40.4091 -135.7276 -37.2772 6.5354 -13.1464 67.8939 -0.3029 -20.8827
  -0.3224 -21.2001 -13.1468 67.8943 -29.7518 32.0145 -40.6915 -148.2780
  -13.1487 68.1219 -0.3031 -20.9571 -40.6077 -149.0593 -32.6642 -9.3011
382.8659 -29.3391 34.1270 -40.5571 -136.4554 -0.3287 -21.7481 -12.9340 67.6445
  -40.3306 -135.9975 -37.1334 6.6504 -12.9390 67.3825 -0.3140 -21.4132
  -0.3375 -21.7388 -12.9371 67.3490 -29.5068 31.7000 -40.6040 -149.6153
  -12.9366 67.6352 -0.3145 -21.4895 -40.4651 -149.8936 -32.3702 -9.5946
392.8624 -29.1640 34.2528 -40.2829 -136.2858 -0.3428 -22.2641 -12.7308 67.1485
  -40.2139 -135.7773 -36.9618 6.0285 -12.7328 66.8851 -0.3318 -21.9333
  -0.3507 -22.2433 -12.7347 66.8629 -29.4113 30.8803 -40.5331 -149.5480
  -12.7350 67.1228 -0.3338 -21.9884 -40.3507 -149.9827 -32.2505 -9.8444
402.8588 -29.0232 34.3648 -40.1216 -135.9961 -0.3573 -22.7434 -12.5316 66.6868
  -40.0794 -135.5261 -36.6306 4.7565 -12.5360 66.4296 -0.3443 -22.4181
  -0.3646 -22.7049 -12.5339 66.4159 -29.1242 30.0004 -40.3929 -151.0533
  -12.5350 66.6639 -0.3433 -22.4807 -40.3004 -151.4097 -32.1087 -9.2473
412.8553 -28.9262 34.6544 -39.9617 -135.8045 -0.3673 -23.2533 -12.3367 66.2210
  -39.9164 -135.8119 -36.5422 4.1427 -12.3386 65.9263 -0.3563 -22.8957
  -0.3767 -23.2301 -12.3394 65.9009 -28.8878 28.9346 -40.2007 -150.8905
  -12.3415 66.1933 -0.3559 -22.9582 -40.3341 -152.2087 -32.1840 -9.3826
422.8518 -28.8326 34.3941 -39.8967 -135.5064 -0.3784 -23.7521 -12.1479 65.6934
  -39.9841 -135.3104 -36.4129 2.0949 -12.1456 65.4324 -0.3681 -23.4327
  -0.3881 -23.7456 -12.1545 65.4077 -28.7981 28.3354 -40.1687 -151.4193
  -12.1515 65.6714 -0.3718 -23.4798 -40.1739 -151.9855 -32.0886 -10.9366
432.8482 -28.9700 34.4961 -39.8052 -134.2879 -0.3909 -24.2913 -11.9620 65.1829
  -39.6793 -133.0536 -36.4339 -1.0870 -11.9617 64.9029 -0.3813 -23.9134
  -0.4028 -24.2596 -11.9663 64.8965 -28.7068 27.7189 -40.0600 -151.2280
  -11.9671 65.1730 -0.3823 -23.9969 -40.1101 -151.8749 -32.1224 -12.3745
442.8447 -28.9152 33.8660 -39.7231 -133.9373 -0.4056 -24.8022 -11.7812 64.6825
  -39.5873 -132.4731 -36.3426 -3.7384 -11.7857 64.3819 -0.3939 -24.4357
  -0.4127 -24.7775 -11.7854 64.3816 -28.5549 27.2918 -39.9762 -150.9400
  -11.7861 64.6587 -0.3922 -24.5273 -39.9687 -151.6437 -32.0526 -14.4424
452.8412 -28.7834 33.1303 -39.5492 -133.2262 -0.4193 -25.2767 -11.6086 64.2423
  -39.4690 -132.2493 -36.4389 -6.5444 -11.6061 63.9291 -0.4046 -24.9038
  -0.4236 -25.2695 -11.6093 63.9354 -28.4442 27.0792 -39.8403 -151.4663
  -11.6100 64.1788 -0.4029 -24.9952 -39.8324 -151.9189 -31.8987 -15.8914
462.8376 -28.5251 32.0938 -39.4929 -133.3990 -0.4306 -25.8029 -11.4390 63.7416
  -39.3616 -132.4299 -36.2873 -8.1173 -11.4388 63.4524 -0.4175 -25.4028
  -0.4389 -25.7557 -11.4391 63.4502 -28.3515 26.4044 -39.7697 -152.0853
  -11.4378 63.7049 -0.4193 -25.4921 -39.7128 -151.9280 -31.6003 -17.2341
472.8341 -28.4344 31.5518 -39.2036 -132.4215 -0.4461 -26.3170 -11.2725 63.2506
  -39.0413 -131.5102 -36.5069 -9.6421 -11.2730 62.9569 -0.4297 -25.9047
  -0.4525 -26.2797 -11.2718 62.9593 -28.2365 26.4244 -39.5164 -151.3565
  -11.2749 63.2248 -0.4320 -25.9632 -39.5155 -151.8136 -31.4145 -18.7492
482.8306 -28.2771 31.1016 -38.9184 -132.0484 -0.4614 -26.8124 -11.1118 62.7708
  -38.6776 -131.0167 -36.5820 -9.7234 -11.1091 62.4561 -0.4437 -26.3973
  -0.4642 -26.7741 -11.1092 62.4639 -28.1563 26.6333 -39.2552 -151.4273
  -11.1098 62.7176 -0.4446 -26.4647 -39.2387 -151.6249 -31.1862 -19.8053
492.8271 -28.0869 30.3422 -38.5157 -131.3181 -0.4718 -27.3076 -10.9511 62.2863
  -38.3837 -130.4188 -36.8056 -9.7588 -10.9497 61.9811 -0.4563 -26.8977
  -0.4787 -27.2639 -10.9531 61.9619 -27.9819 26.6847 -39.0095 -151.3344
  -10.9560 62.2660 -0.4567 -26.9686 -39.0407 -152.1029 -30.9500 -20.5968
502.8235 -27.6967 29.8347 -38.2022 -131.4000 -0.4872 -27.7956 -10.7991 61.8143
  -38.2819 -131.8709 -36.8979 -8.6694 -10.7962 61.5032 -0.4710 -27.3505
  -0.4911 -27.7528 -10.7962 61.4655 -27.7723 26.8139 -38.8643 -152.5928
  -10.7987 61.7929 -0.4740 -27.4613 -38.7757 -153.0034 -30.5933 -20.2195
512.8200 -27.5757 29.7542 -38.0259 -132.4789 -0.5057 -28.2797 -10.6406 61.2661
  -37.8932 -131.5598 -36.6646 -5.7523 -10.6473 61.0249 -0.4935 -27.8683
  -0.5095 -28.2493 -10.6459 61.0282 -27.5697 26.7553 -38.6613 -153.3657
  -10.6522 61.3149 -0.4908 -27.9178 -38.6305 -154.1132 -30.3387 -20.0269
522.8165 -27.4378 30.1151 -37.8128 -132.5595 -0.5214 -28.8061 -10.5093 60.8375
  -37.6048 -131.7133 -36.6555 -3.8883 -10.5050 60.5080 -0.5085 -28.3775
  -0.5275 -28.7327 -10.5050 60.4985 -27.4158 26.2449 -38.6024 -154.2538
  -10.5081 60.8437 -0.5086 -28.4216 -38.5559 -154.8129 -30.1432 -19.4300
532.8129 -27.2896 30.2455 -37.6322 -133.4986 -0.5419 -29.3039 -10.3649 60.3646
  -37.4698 -132.3848 -36.5526 -1.5600 -10.3657 59.9954 -0.5201 -28.8614
  -0.5464 -29.2753 -10.3611 60.0027 -27.3242 25.7435 -38.5009 -155.0295
  -10.3621 60.2701 -0.5233 -28.9296 -38.4686 -155.1982 -30.0206 -19.0493
542.8094 -27.1985 30.6326 -37.5864 -134.6802 -0.5546 -29.7898 -10.2269 59.8643
  -37.2963 -133.2177 -36.1964 0.4969 -10.2289 59.5237 -0.5416 -29.3536
  -0.5613 -29.7898 -10.2186 59.4473 -27.1554 24.9152 -38.5466 -155.8216
  -10.2304 59.8435 -0.5423 -29.4354 -38.4959 -156.4622 -29.8879 -18.8000
552.8059 -27.1627 30.9339 -37.3607 -134.9395 -0.5705 -30.2613 -10.0951 59.3998
  -37.1562 -133.7874 -36.1699 1.3789 -10.0871 58.9883 -0.5578 -29.8300
  -0.5806 -30.2494 -10.0838 58.9727 -27.0269 24.0339 -38.5257 -157.8288
  -10.0910 59.3039 -0.5576 -29.8904 -38.4738 -157.2709 -29.7865 -17.8140
562.8024 -27.1586 31.1542 -37.2631 -136.3140 -0.5879 -30.7507 -9.9516 58.8571
  -37.0074 -134.1820 -35.8033 2.7655 -9.9613 58.5823 -0.5734 -30.3003
  -0.5948 -30.7338 -9.9586 58.4756 -26.9153 23.1546 -38.4530 -158.4085
  -9.9579 58.8349 -0.5753 -30.3705 -38.4605 -158.1691 -29.7246 -17.6621
572.7988 -27.1302 31.2919 -37.0501 -136.5263 -0.6058 -31.2741 -9.8312 58.4510
  -36.8323 -134.5513 -35.8888 1.5950 -9.8226 58.0341 -0.5882 -30.8017
  -0.6094 -31.2486 -9.8344 58.0361 -26.8100 22.3997 -38.3037 -157.3695
  -9.8335 58.4139 -0.5923 -30.8894 -38.4046 -158.2955 -29.8418 -18.4320
582.7953 -27.1779 31.1524 -36.6491 -135.1968 -0.6206 -31.7630 -9.7052 57.9380
  -36.6011 -133.8314 -36.3819 0.4461 -9.7074 57.5694 -0.6024 -31.3332
  -0.6269 -31.7268 -9.6989 57.4775 -26.7349 22.6101 -38.2665 -157.9596
  -9.7046 57.9316 -0.6078 -31.3892 -38.1662 -158.0009 -29.7577 -19.0025
592.7918 -27.1134 30.5838 -36.3616 -135.1533 -0.6346 -32.2875 -9.5692 57.3745
  -36.4592 -133.8682 -36.5951 -0.2253 -9.5804 57.0812 -0.6190 -31.8245
  -0.6412 -32.2268 -9.5746 57.0505 -26.8308 22.4319 -37.9573 -156.8817
  -9.5802 57.4422 -0.6184 -31.8846 -37.9115 -155.6137 -29.8104 -19.9779
602.7882 -27.0641 29.7235 -36.1427 -134.8082 -0.6515 -32.7075 -9.4421 56.9590
  -36.1644 -133.4747 -36.7702 -1.6881 -9.4530 56.6706 -0.6328 -32.2775
  -0.6577 -32.7171 -9.4476 56.5503 -26.7238 22.3715 -37.7700 -155.0846
  -9.4530 56.9961 -0.6374 -32.3319 -37.7789 -155.6664 -29.7607 -21.8547
612.7847 -26.8651 28.6936 -35.9042 -134.7507 -0.6648 -33.2415 -9.3250 56.4527
  -35.9229 -133.8868 -37.0137 -2.1451 -9.3321 56.1696 -0.6462 -32.7583
  -0.6696 -33.1811 -9.3289 56.1382 -26.6453 22.5090 -37.5540 -154.4505
  -9.3297 56.5234 -0.6495 -32.8253 -37.5686 -155.0491 -29.6159 -23.0780
622.7812 -26.7231 27.6343 -35.5487 -134.5590 -0.6809 -33.7247 -9.2151 56.0504
  -35.6430 -133.7096 -37.3913 -1.1225 -9.2060 55.5974 -0.6666 -33.2461
  -0.6873 -33.6932 -9.2133 55.6296 -26.6112 22.8676 -37.3056 -153.9092
  -9.2169 56.0161 -0.6669 -33.3242 -37.3139 -154.2228 -29.4388 -23.8469
632.7776 -26.5037 26.9086 -35.3205 -134.7280 -0.6966 -34.2778 -9.0996 55.5405
  -35.3325 -134.0084 -37.4754 0.0502 -9.0985 55.1334 -0.6823 -33.7535
  -0.7032 -34.2342 -9.0954 55.1037 -26.5058 23.3032 -36.9757 -153.9249
  -9.0999 55.5217 -0.6798 -33.8174 -37.0785 -154.1414 -29.2403 -24.1875
642.7741 -26.2755 26.2134 -35.0501 -135.4710 -0.7124 -34.7497 -8.9869 55.0598
  -35.1140 -134.8731 -37.5465 2.3758 -8.9810 54.6222 -0.6972 -34.2399
  -0.7210 -34.7093 -8.9758 54.5778 -26.3840 23.4220 -36.9620 -154.6581
  -8.9895 55.0356 -0.6943 -34.3100 -36.8772 -154.9158 -28.9819 -24.2021
652.7706 -26.0120 25.9298 -34.8729 -137.0126 -0.7275 -35.1889 -8.8698 54.5597
  -34.8824 -136.2275 -37.1492 5.8130 -8.8696 54.1823 -0.7154 -34.6956
  -0.7368 -35.1558 -8.8674 54.1348 -26.1857 23.7654 -36.6828 -156.2189
  -8.8774 54.5307 -0.7121 -34.7350 -36.6022 -156.5674 -28.7940 -23.5556
662.7671 -25.8126 25.6099 -34.7688 -137.8683 -0.7515 -35.6374 -8.7677 54.0884
  -34.7274 -137.4955 -36.7544 7.7246 -8.7651 53.7298 -0.7333 -35.1495
  -0.7570 -35.6517 -8.7618 53.6566 -26.0656 24.1500 -36.4475 -157.4406
  -8.7645 54.0736 -0.7311 -35.2296 -36.3892 -157.8368 -28.5471 -22.7278
672.7635 -25.6048 25.7050 -34.6695 -138.6139 -0.7705 -36.1319 -8.6632 53.6658
  -34.6169 -138.8183 -36.4028 9.1356 -8.6667 53.2399 -0.7516 -35.6119
