<Qucs Dataset 0.0.20>
<indep acfrequency 3>
  +2.40000000000000000000e+09
  +2.45000000000000000000e+09
  +2.50000000000000000000e+09
</indep>
<indep u_bias 11>
  +0.00000000000000000000e+00
  +3.29999999999999960032e-01
  +6.59999999999999920064e-01
  +9.89999999999999880096e-01
  +1.31999999999999984013e+00
  +1.64999999999999991118e+00
  +1.97999999999999976019e+00
  +2.30999999999999960920e+00
  +2.63999999999999968026e+00
  +2.96999999999999975131e+00
  +3.29999999999999982236e+00
</indep>
<dep phase acfrequency>
  +2.39794785601785065410e+00
  +2.26048647457205298394e+00
  +2.12065232184240137769e+00
</dep>
<dep V1.i acfrequency>
  +1.10998027428641684298e-04-j4.40057757936371927066e-05
  +1.08255508649380711712e-04-j5.17104588056122271541e-05
  +1.04409206439220477542e-04-j5.90702467496814396207e-05
</dep>
<dep V2.i acfrequency>
  -2.02300272610033797516e-02-j2.82600691809025035550e-04
  -2.02205062975411853365e-02-j2.14592662732996514174e-04
  -2.01946286314168936549e-02-j1.52177487370089466190e-04
</dep>
<dep _net6.v acfrequency>
  -1.22044645634083376295e-01-j7.39210912177423462577e-02
  -8.99075682890204258557e-02-j5.25768592423253022794e-02
  -5.46275168090909063467e-02-j3.56723565524941430005e-02
</dep>
<dep _net7.v acfrequency>
  -1.19725272636500035262e+00-j5.28498382338158045890e-01
  -1.24365756336202526455e+00-j4.49729554930322239503e-01
  -1.28367168919510676872e+00-j3.65181269038316047570e-01
</dep>
<dep _net2.v acfrequency>
  +1.15857754466209428301e+00+j5.00461163441045298050e-01
  +1.22036485091437496564e+00+j4.32707109731010619580e-01
  +1.27282955429584099249e+00+j3.55864196007353861262e-01
</dep>
<dep _net0.v acfrequency>
  +9.99812594595739234649e-01+j1.34154534894686851276e-02
  +9.99860598028468494647e-01+j1.31354837921407278933e-02
  +9.99903120802630995811e-01+j1.28562998823804636866e-02
</dep>
<dep _net3.v acfrequency>
  -4.94986079307805026950e-01+j1.17334965671629420925e+00
  -4.24344183176774802924e-01+j1.23375697261824157636e+00
  -3.44956288123163146153e-01+j1.28419178357562202564e+00
</dep>
<dep _net1.v acfrequency>
  -6.85879549906872276743e-01+j6.47869122193324153969e-01
  -5.89378116614717395549e-01+j7.33773187400164728089e-01
  -4.80228454321814490768e-01+j8.06391955558982354013e-01
</dep>
<dep in.v acfrequency>
  +1.00000000000000000000e+00
  +1.00000000000000000000e+00
  +1.00000000000000000000e+00
</dep>
<dep bias.v acfrequency>
  +0.00000000000000000000e+00
  +0.00000000000000000000e+00
  +0.00000000000000000000e+00
</dep>
<dep _net4.v acfrequency>
  +7.35356962034487970925e-02-j1.23783593659944457510e-01
  +5.21178357968904437669e-02-j9.10917443159666162522e-02
  +3.53277733252812531362e-02-j5.53245278993774458609e-02
</dep>
<dep _net5.v acfrequency>
  +5.22942792708522286027e-01-j1.21261567532775660361e+00
  +4.41273521542043023480e-01-j1.25738893468430590339e+00
  +3.54218520761647448492e-01-j1.29519521647732460679e+00
</dep>
<dep out.v acfrequency>
  -6.94350041485120583751e-01+j6.38660018748455904358e-01
  -5.98810395975268860980e-01+j7.25993298870019510005e-01
  -4.90416252297298294049e-01+j8.00147781900924948140e-01
</dep>
<dep V1.I u_bias>
  +0.00000000000000000000e+00
  -3.56995976162087236044e-14
  -4.45833797020260897868e-14
  -5.34489510228225363499e-14
  -6.23129824627532486531e-14
  -7.11766948929296649440e-14
  -8.00403088778528217548e-14
  -8.89038845411551224292e-14
  -9.77674428078441575637e-14
  -1.06630992260104524429e-13
  -1.15494538441967815591e-13
</dep>
<dep V2.I u_bias>
  +0.00000000000000000000e+00
  +0.00000000000000000000e+00
  +0.00000000000000000000e+00
  +0.00000000000000000000e+00
  +0.00000000000000000000e+00
  +0.00000000000000000000e+00
  +0.00000000000000000000e+00
  +0.00000000000000000000e+00
  +0.00000000000000000000e+00
  +0.00000000000000000000e+00
  +0.00000000000000000000e+00
</dep>
<dep _net6.V u_bias>
  +0.00000000000000000000e+00
  +3.29999999999999793499e-01
  +6.59999999999999698019e-01
  +9.89999999999999658051e-01
  +1.31999999999999961808e+00
  +1.64999999999999968914e+00
  +1.97999999999999931610e+00
  +2.30999999999999916511e+00
  +2.63999999999999923617e+00
  +2.96999999999999930722e+00
  +3.29999999999999937828e+00
</dep>
<dep _net7.V u_bias>
  +0.00000000000000000000e+00
  +3.29999999999999737987e-01
  +6.59999999999999586997e-01
  +9.89999999999999547029e-01
  +1.31999999999999939604e+00
  +1.64999999999999946709e+00
  +1.97999999999999909406e+00
  +2.30999999999999916511e+00
  +2.63999999999999923617e+00
  +2.96999999999999886313e+00
  +3.29999999999999893419e+00
</dep>
<dep _net2.V u_bias>
  +0.00000000000000000000e+00
  +3.29999999999999960032e-01
  +6.59999999999999920064e-01
  +9.89999999999999880096e-01
  +1.31999999999999984013e+00
  +1.64999999999999991118e+00
  +1.97999999999999976019e+00
  +2.30999999999999960920e+00
  +2.63999999999999968026e+00
  +2.96999999999999975131e+00
  +3.29999999999999982236e+00
</dep>
<dep _net0.V u_bias>
  +0.00000000000000000000e+00
  +3.29999999999999960032e-01
  +6.59999999999999920064e-01
  +9.89999999999999880096e-01
  +1.31999999999999984013e+00
  +1.64999999999999991118e+00
  +1.97999999999999976019e+00
  +2.30999999999999960920e+00
  +2.63999999999999968026e+00
  +2.96999999999999975131e+00
  +3.29999999999999982236e+00
</dep>
<dep _net3.V u_bias>
  +0.00000000000000000000e+00
  +3.29999999999999960032e-01
  +6.59999999999999920064e-01
  +9.89999999999999880096e-01
  +1.31999999999999984013e+00
  +1.64999999999999991118e+00
  +1.97999999999999976019e+00
  +2.30999999999999960920e+00
  +2.63999999999999968026e+00
  +2.96999999999999975131e+00
  +3.29999999999999982236e+00
</dep>
<dep _net1.V u_bias>
  +0.00000000000000000000e+00
  +3.29999999999999960032e-01
  +6.59999999999999920064e-01
  +9.89999999999999880096e-01
  +1.31999999999999984013e+00
  +1.64999999999999991118e+00
  +1.97999999999999976019e+00
  +2.30999999999999960920e+00
  +2.63999999999999968026e+00
  +2.96999999999999975131e+00
  +3.29999999999999982236e+00
</dep>
<dep in.V u_bias>
  +0.00000000000000000000e+00
  +0.00000000000000000000e+00
  +0.00000000000000000000e+00
  +0.00000000000000000000e+00
  +0.00000000000000000000e+00
  +0.00000000000000000000e+00
  +0.00000000000000000000e+00
  +0.00000000000000000000e+00
  +0.00000000000000000000e+00
  +0.00000000000000000000e+00
  +0.00000000000000000000e+00
</dep>
<dep bias.V u_bias>
  +0.00000000000000000000e+00
  +3.29999999999999960032e-01
  +6.59999999999999920064e-01
  +9.89999999999999880096e-01
  +1.31999999999999984013e+00
  +1.64999999999999991118e+00
  +1.97999999999999976019e+00
  +2.30999999999999960920e+00
  +2.63999999999999968026e+00
  +2.96999999999999975131e+00
  +3.29999999999999982236e+00
</dep>
<dep _net4.V u_bias>
  +0.00000000000000000000e+00
  +3.29999999999999793499e-01
  +6.59999999999999698019e-01
  +9.89999999999999658051e-01
  +1.31999999999999961808e+00
  +1.64999999999999968914e+00
  +1.97999999999999931610e+00
  +2.30999999999999916511e+00
  +2.63999999999999923617e+00
  +2.96999999999999930722e+00
  +3.29999999999999937828e+00
</dep>
<dep _net5.V u_bias>
  +0.00000000000000000000e+00
  +3.29999999999999737987e-01
  +6.59999999999999586997e-01
  +9.89999999999999547029e-01
  +1.31999999999999939604e+00
  +1.64999999999999946709e+00
  +1.97999999999999909406e+00
  +2.30999999999999916511e+00
  +2.63999999999999923617e+00
  +2.96999999999999886313e+00
  +3.29999999999999893419e+00
</dep>
<dep out.V u_bias>
  +0.00000000000000000000e+00
  +0.00000000000000000000e+00
  +0.00000000000000000000e+00
  +0.00000000000000000000e+00
  +0.00000000000000000000e+00
  +0.00000000000000000000e+00
  +0.00000000000000000000e+00
  +0.00000000000000000000e+00
  +0.00000000000000000000e+00
  +0.00000000000000000000e+00
  +0.00000000000000000000e+00
</dep>
